 ****** HSPICE -- Q-2020.03 linux64 (Mar  8 2020) ******                        
  Copyright (c) 1986 - 2023 by Synopsys, Inc. All Rights Reserved.              
  This software and the associated documentation are proprietary
  to Synopsys, Inc. This software may only be used in accordance
  with the terms and conditions of a written license agreement with
  Synopsys, Inc. All other use, reproduction, or distribution of
  this software is strictly prohibited.
  Input File: CLA_cmos.sp                                                       
  Command line options: /usr/cad/synopsys/hspice/cur/hspice/linux64/hspice -i CLA_cmos.sp -o CLA_cmos.lis
  Start time: Thu Mar 16 23:55:40 2023
 lic:  
 lic: FLEXlm: SDK_12.6 
 lic: USER:   109303021            HOSTNAME: ares-athena 
 lic: HOSTID: "e61f13c2e205"       PID:      10953 
 lic: Using FLEXlm license file: 
 lic: 26585@lshc 
 lic: Checkout 1 hspice 
 lic: License/Maintenance for hspice will expire on 14-may-2025/2022.06 
 lic: 292(in_use)/600(total) FLOATING license(s) on SERVER 26585@lshc 
 lic:   
1****** HSPICE -- Q-2020.03 linux64 (Mar  8 2020) ******                        
 ******  
 .title carry_lookahead addder implement by cmos logic

 ****** circuit name directory
 circuit number to circuit name directory
   number circuitname                     definition         multiplier
        0 main circuit
        1 xcla_8.                         cla_8              1.00 
        2 xcla_8.xu0.                     unit               1.00 
        3 xcla_8.xu1.                     unit               1.00 
        4 xcla_8.xu2.                     unit               1.00 
        5 xcla_8.xu3.                     unit               1.00 
        6 xcla_8.xu4.                     unit               1.00 
        7 xcla_8.xu5.                     unit               1.00 
        8 xcla_8.xu6.                     unit               1.00 
        9 xcla_8.xu7.                     unit               1.00 
       10 xcla_8.xu0.xxnor_upper.         xnor               1.00 
       11 xcla_8.xu0.xxnor_lower.         xnor               1.00 
       12 xcla_8.xu0.xmux.                mux                1.00 
       13 xcla_8.xu1.xxnor_upper.         xnor               1.00 
       14 xcla_8.xu1.xxnor_lower.         xnor               1.00 
       15 xcla_8.xu1.xmux.                mux                1.00 
       16 xcla_8.xu2.xxnor_upper.         xnor               1.00 
       17 xcla_8.xu2.xxnor_lower.         xnor               1.00 
       18 xcla_8.xu2.xmux.                mux                1.00 
       19 xcla_8.xu3.xxnor_upper.         xnor               1.00 
       20 xcla_8.xu3.xxnor_lower.         xnor               1.00 
       21 xcla_8.xu3.xmux.                mux                1.00 
       22 xcla_8.xu4.xxnor_upper.         xnor               1.00 
       23 xcla_8.xu4.xxnor_lower.         xnor               1.00 
       24 xcla_8.xu4.xmux.                mux                1.00 
       25 xcla_8.xu5.xxnor_upper.         xnor               1.00 
       26 xcla_8.xu5.xxnor_lower.         xnor               1.00 
       27 xcla_8.xu5.xmux.                mux                1.00 
       28 xcla_8.xu6.xxnor_upper.         xnor               1.00 
       29 xcla_8.xu6.xxnor_lower.         xnor               1.00 
       30 xcla_8.xu6.xmux.                mux                1.00 
       31 xcla_8.xu7.xxnor_upper.         xnor               1.00 
       32 xcla_8.xu7.xxnor_lower.         xnor               1.00 
       33 xcla_8.xu7.xmux.                mux                1.00 
       34 xcla_8.xu0.xxnor_upper.xinv1.   inv                1.00 
       35 xcla_8.xu0.xxnor_upper.xinv2.   inv                1.00 
       36 xcla_8.xu0.xxnor_lower.xinv1.   inv                1.00 
       37 xcla_8.xu0.xxnor_lower.xinv2.   inv                1.00 
       38 xcla_8.xu0.xmux.xinv.           inv                1.00 
       39 xcla_8.xu1.xxnor_upper.xinv1.   inv                1.00 
       40 xcla_8.xu1.xxnor_upper.xinv2.   inv                1.00 
       41 xcla_8.xu1.xxnor_lower.xinv1.   inv                1.00 
       42 xcla_8.xu1.xxnor_lower.xinv2.   inv                1.00 
       43 xcla_8.xu1.xmux.xinv.           inv                1.00 
       44 xcla_8.xu2.xxnor_upper.xinv1.   inv                1.00 
       45 xcla_8.xu2.xxnor_upper.xinv2.   inv                1.00 
       46 xcla_8.xu2.xxnor_lower.xinv1.   inv                1.00 
       47 xcla_8.xu2.xxnor_lower.xinv2.   inv                1.00 
       48 xcla_8.xu2.xmux.xinv.           inv                1.00 
       49 xcla_8.xu3.xxnor_upper.xinv1.   inv                1.00 
       50 xcla_8.xu3.xxnor_upper.xinv2.   inv                1.00 
       51 xcla_8.xu3.xxnor_lower.xinv1.   inv                1.00 
       52 xcla_8.xu3.xxnor_lower.xinv2.   inv                1.00 
       53 xcla_8.xu3.xmux.xinv.           inv                1.00 
       54 xcla_8.xu4.xxnor_upper.xinv1.   inv                1.00 
       55 xcla_8.xu4.xxnor_upper.xinv2.   inv                1.00 
       56 xcla_8.xu4.xxnor_lower.xinv1.   inv                1.00 
       57 xcla_8.xu4.xxnor_lower.xinv2.   inv                1.00 
       58 xcla_8.xu4.xmux.xinv.           inv                1.00 
       59 xcla_8.xu5.xxnor_upper.xinv1.   inv                1.00 
       60 xcla_8.xu5.xxnor_upper.xinv2.   inv                1.00 
       61 xcla_8.xu5.xxnor_lower.xinv1.   inv                1.00 
       62 xcla_8.xu5.xxnor_lower.xinv2.   inv                1.00 
       63 xcla_8.xu5.xmux.xinv.           inv                1.00 
       64 xcla_8.xu6.xxnor_upper.xinv1.   inv                1.00 
       65 xcla_8.xu6.xxnor_upper.xinv2.   inv                1.00 
       66 xcla_8.xu6.xxnor_lower.xinv1.   inv                1.00 
       67 xcla_8.xu6.xxnor_lower.xinv2.   inv                1.00 
       68 xcla_8.xu6.xmux.xinv.           inv                1.00 
       69 xcla_8.xu7.xxnor_upper.xinv1.   inv                1.00 
       70 xcla_8.xu7.xxnor_upper.xinv2.   inv                1.00 
       71 xcla_8.xu7.xxnor_lower.xinv1.   inv                1.00 
       72 xcla_8.xu7.xxnor_lower.xinv2.   inv                1.00 
       73 xcla_8.xu7.xmux.xinv.           inv                1.00 
  **info** (CLA_cmos.sp:95) DC voltage reset to initial transient source value in source 0:vin1. new dc=0.0000D+00
  **warning** (v_$vin2:0) pulse rise time is  < or = zero, reset to tstep
  **warning** (v_$vin2:0) pulse fall time is  < or = zero, reset to tstep
 

  
      
  **warning** (v_$vin2:0) pulse rise time is  < or = zero, reset to tstep
  **warning** (v_$vin2:0) pulse fall time is  < or = zero, reset to tstep
 **info** set option symb=1 internally to help for convergence.
 *****************************************************************
 ******  option summary
 ******
 runlvl  = 3         bypass  = 2.0000    
  Opening plot unit= 15
 file=CLA_cmos.pa0

  **warning** (v_$vin2:0) pulse rise time is  < or = zero, reset to tstep
  **warning** (v_$vin2:0) pulse fall time is  < or = zero, reset to tstep
 **info** dc convergence successful at Newton-Raphson method 
 ******  
 .title carry_lookahead addder implement by cmos logic

 ****** operating point information tnom=  25.000 temp=  25.000 ******
 ****** operating point status is all       simulation time is     0.     
     node    =voltage       node    =voltage       node    =voltage

 + 0:c0      =   1.8000   0:c1      = 346.7274n  0:c2      = 649.8543n
 + 0:c3      = 909.3813n  0:c4      =   1.1253u  0:c5      =   1.2976u
 + 0:c6      =   1.4264u  0:c7      =   1.5115u  0:c8      =   1.5530u
 + 0:s0      =   1.8000   0:s1      =   1.8000   0:s2      =   1.8000 
 + 0:s3      =   1.8000   0:s4      =   1.8000   0:s5      =   1.8000 
 + 0:s6      =   1.8000   0:s7      =   1.8000   0:vdd     =   1.8000 
 + 0:vss     =   0.       0:x0      =   0.       0:x1      =   0.     
 + 0:x2      =   0.       0:x3      =   0.       0:x4      =   0.     
 + 0:x5      =   0.       0:x6      =   0.       0:x7      =   0.     
 + 0:y0      =   0.       0:y1      =   1.8000   0:y2      =   1.8000 
 + 0:y3      =   1.8000   0:y4      =   1.8000   0:y5      =   1.8000 
 + 0:y6      =   1.8000   0:y7      =   1.8000   2:xnor_out=   1.8000 
 + 3:xnor_out=  85.5791n  4:xnor_out=  85.5791n  5:xnor_out=  85.5791n
 + 6:xnor_out=  85.5791n  7:xnor_out=  85.5791n  8:xnor_out=  85.5791n
 + 9:xnor_out=  85.5791n 10:in1_i   =   1.8000  10:in2_i   =   1.8000 
 +10:n1l_s   = 150.9686n 10:n1r_s   =   1.5703  10:p1l_s   =   1.8000 
 +10:p1r_s   =   1.8000  11:in1_i   =  23.8373n 11:in2_i   =  23.8367n
 +11:n1l_s   =   1.5703  11:n1r_s   = 150.9687n 11:p1l_s   =   1.8000 
 +11:p1r_s   =   1.8000  12:sel_i   =  23.8373n 13:in1_i   =   1.8000 
 +13:in2_i   =  23.8367n 13:n1l_s   =  42.6395n 13:n1r_s   =  42.7895n
 +13:p1l_s   =   1.8000  13:p1r_s   = 403.0475m 14:in1_i   =   1.8000 
 +14:in2_i   =   1.8000  14:n1l_s   = 150.9690n 14:n1r_s   =   1.5703 
 +14:p1l_s   =   1.8000  14:p1r_s   =   1.8000  15:sel_i   =   1.8000 
 +16:in1_i   =   1.8000  16:in2_i   =  23.8367n 16:n1l_s   =  42.6395n
 +16:n1r_s   =  42.7895n 16:p1l_s   =   1.8000  16:p1r_s   = 403.0476m
 +17:in1_i   =   1.8000  17:in2_i   =   1.8000  17:n1l_s   = 150.9690n
 +17:n1r_s   =   1.5703  17:p1l_s   =   1.8000  17:p1r_s   =   1.8000 
 +18:sel_i   =   1.8000  19:in1_i   =   1.8000  19:in2_i   =  23.8367n
 +19:n1l_s   =  42.6395n 19:n1r_s   =  42.7895n 19:p1l_s   =   1.8000 
 +19:p1r_s   = 403.0475m 20:in1_i   =   1.8000  20:in2_i   =   1.8000 
 +20:n1l_s   = 150.9690n 20:n1r_s   =   1.5703  20:p1l_s   =   1.8000 
 +20:p1r_s   =   1.8000  21:sel_i   =   1.8000  22:in1_i   =   1.8000 
 +22:in2_i   =  23.8367n 22:n1l_s   =  42.6395n 22:n1r_s   =  42.7895n
 +22:p1l_s   =   1.8000  22:p1r_s   = 403.0475m 23:in1_i   =   1.8000 
 +23:in2_i   =   1.8000  23:n1l_s   = 150.9690n 23:n1r_s   =   1.5703 
 +23:p1l_s   =   1.8000  23:p1r_s   =   1.8000  24:sel_i   =   1.8000 
 +25:in1_i   =   1.8000  25:in2_i   =  23.8367n 25:n1l_s   =  42.6395n
 +25:n1r_s   =  42.7895n 25:p1l_s   =   1.8000  25:p1r_s   = 403.0475m
 +26:in1_i   =   1.8000  26:in2_i   =   1.8000  26:n1l_s   = 150.9690n
 +26:n1r_s   =   1.5703  26:p1l_s   =   1.8000  26:p1r_s   =   1.8000 
 +27:sel_i   =   1.8000  28:in1_i   =   1.8000  28:in2_i   =  23.8367n
 +28:n1l_s   =  42.6395n 28:n1r_s   =  42.7895n 28:p1l_s   =   1.8000 
 +28:p1r_s   = 403.0475m 29:in1_i   =   1.8000  29:in2_i   =   1.8000 
 +29:n1l_s   = 150.9690n 29:n1r_s   =   1.5703  29:p1l_s   =   1.8000 
 +29:p1r_s   =   1.8000  30:sel_i   =   1.8000  31:in1_i   =   1.8000 
 +31:in2_i   =  23.8367n 31:n1l_s   =  42.6395n 31:n1r_s   =  42.7895n
 +31:p1l_s   =   1.8000  31:p1r_s   = 403.0475m 32:in1_i   =   1.8000 
 +32:in2_i   =   1.8000  32:n1l_s   = 150.9690n 32:n1r_s   =   1.5703 
 +32:p1l_s   =   1.8000  32:p1r_s   =   1.8000  33:sel_i   =   1.8000 


 **** voltage sources

 subckt                                                              
 element   0:vdd       0:vin1      0:vin10     0:vin11     0:vin12   
  volts       1.8000      0.          1.8000      0.          1.8000 
  current    -3.5927n     0.        -34.3335p     0.        -34.3334p
  power       6.4669n     0.         61.8004p     0.         61.8002p

 subckt                                                              
 element   0:vin13     0:vin14     0:vin15     0:vin16     0:vin17   
  volts       0.          1.8000      0.          1.8000      1.8000 
  current     0.        -34.3333p     0.        -34.3332p   -34.3344p
  power       0.         61.8000p     0.         61.7998p    61.8019p

 subckt                                                              
 element   0:vin2      0:vin3      0:vin4      0:vin5      0:vin6    
  volts       0.          0.          1.8000      0.          1.8000 
  current   303.4708p     0.        -34.3341p     0.        -34.3338p
  power       0.          0.         61.8015p     0.         61.8009p

 subckt                                                  
 element   0:vin7      0:vin8      0:vin9      0:vss     
  volts       0.          1.8000      0.          0.     
  current     0.        -34.3338p     0.          3.5927n
  power       0.         61.8008p     0.          0.     

     total voltage source power dissipation=    6.9613n       watts




 **** mosfets


 subckt    xcla_8.xu0  xcla_8.xu0  xcla_8.xu0  xcla_8.xu0  xcla_8.xu0
 element  10:mp1l     10:mp2l     10:mp1r     10:mp2r     10:mn1l    
 model     0:p_18.1    0:p_18.1    0:p_18.1    0:p_18.1    0:n_18.1  
 region    Linear      Linear      Cutoff      Cutoff      Subth     
  id       -131.1162p  -131.1162p   -50.0195a   -38.9222a    67.1864p
  ibs       3.853e-26   4.155e-23     0.        4.668e-23  -1.370e-23
  ibd       4.147e-23   8.297e-23   4.668e-23   8.301e-23  -162.7739a
  vgs        -1.8000     -1.8000   -585.3520n   148.9196n  -150.9686n
  vds      -652.8256n  -652.8261n  -734.2716n  -571.3802n     1.8000 
  vbs         0.        652.8256n     0.        734.2716n  -150.9686n
  vth      -520.0605m  -520.0607m  -520.0605m  -520.0607m   388.4851m
  vdsat    -984.2467m  -984.2462m   -56.4096m   -56.4096m    61.9442m
  vod        -1.2799     -1.2799    520.0599m   520.0608m  -388.4852m
  beta      207.3739u   207.3739u   244.9547u   244.9547u   513.7626u
  gam eff   557.0847m   557.0847m   557.0847m   557.0847m   507.4459m
  gm         70.5657p    70.5657p     1.2843f   999.3615a     2.1464n
  gds       201.2177u   201.2176u    68.1208p    68.1193p    65.2602p
  gmb        35.8313p    35.8313p   465.6057a   362.3067a   280.1414p
  cdtot       1.5273f     1.5273f   789.1363a   789.1361a   383.4575a
  cgtot       1.0085f     1.0085f   524.0538a   524.0538a   281.6760a
  cstot       1.4785f     1.4785f   789.1362a   789.1360a   528.8359a
  cbtot       1.4589f     1.4589f     1.4567f     1.4567f   805.6651a
  cgs       508.9779a   508.9779a   161.4210a   161.4210a    97.0786a
  cgd       492.5884a   492.5883a   161.4157a   161.4157a    97.0750a



 subckt    xcla_8.xu0  xcla_8.xu0  xcla_8.xu0  xcla_8.xu0  xcla_8.xu0
 element  10:mn2l     10:mn1r     10:mn2r     11:mp1l     11:mp2l    
 model     0:n_18.1    0:n_18.1    0:n_18.1    0:p_18.1    0:p_18.1  
 region    Linear      Subth       Subth       Cutoff      Cutoff    
  id         68.9864p    58.2997p    53.8183p   -45.2292a   -43.7127a
  ibs      -5.190e-26  -142.0010a  -4.167e-26     0.        4.221e-23
  ibd      -1.360e-23  -162.7739a  -142.0010a   4.221e-23   8.301e-23
  vgs         1.8000    229.7129m     0.         -1.3057u   663.9379n
  vds       150.9686n   229.7121m     1.5703   -663.9379n  -641.7133n
  vbs         0.         -1.5703      0.          0.        663.9379n
  vth       460.7312m   610.6342m   397.7049m  -520.0605m  -520.0607m
  vdsat     612.7778m    64.5990m    61.9492m   -56.4096m   -56.4096m
  vod         1.3393   -380.9214m  -397.7049m   520.0592m   520.0613m
  beta      353.0614u   490.0182u   513.2437u   244.9547u   244.9547u
  gam eff   507.4459m   540.4779m   507.4459m   557.0847m   557.0847m
  gm         24.5619p     1.9144n     1.7050n     1.1613f     1.1224f
  gds       460.4598u    76.0261p    51.7050p    68.1221p    68.1183p
  gmb         9.8194p   232.8341p   219.0936p   421.0147a   406.8990a
  cdtot     853.6287a   383.4575a   392.9681a   789.1363a   789.1361a
  cgtot     539.7876a   242.7896a   281.6759a   524.0537a   524.0538a
  cstot     841.1323a   392.9689a   528.8358a   789.1362a   789.1360a
  cbtot     940.2343a   630.9131a   815.1757a     1.4567f     1.4567f
  cgs       252.5684a    97.0774a    97.0785a   161.4210a   161.4210a
  cgd       255.1288a    97.0750a    97.0750a   161.4157a   161.4157a



 subckt    xcla_8.xu0  xcla_8.xu0  xcla_8.xu0  xcla_8.xu0  xcla_8.xu0
 element  11:mp1r     11:mp2r     11:mn1l     11:mn2l     11:mn1r    
 model     0:p_18.1    0:p_18.1    0:n_18.1    0:n_18.1    0:n_18.1  
 region    Linear      Linear      Subth       Subth       Subth     
  id       -131.1162p  -131.1162p    58.2997p    53.8183p    67.1865p
  ibs       3.853e-26   4.155e-23  -142.0010a  -4.167e-26  -1.370e-23
  ibd       4.147e-23   8.297e-23  -162.7739a  -142.0010a  -162.7739a
  vgs        -1.8000     -1.8000    229.7128m    23.8367n  -127.1314n
  vds      -652.8255n  -652.8258n   229.7128m     1.5703      1.8000 
  vbs         0.        652.8255n    -1.5703      0.       -150.9687n
  vth      -520.0605m  -520.0607m   610.6341m   397.7050m   388.4851m
  vdsat    -984.2466m  -984.2462m    64.5990m    61.9492m    61.9442m
  vod        -1.2799     -1.2799   -380.9214m  -397.7049m  -388.4852m
  beta      207.3739u   207.3739u   490.0182u   513.2437u   513.7626u
  gam eff   557.0847m   557.0847m   540.4779m   507.4459m   507.4459m
  gm         70.5657p    70.5657p     1.9144n     1.7050n     2.1464n
  gds       201.2177u   201.2175u    76.0260p    51.7050p    65.2602p
  gmb        35.8313p    35.8313p   232.8341p   219.0936p   280.1416p
  cdtot       1.5273f     1.5273f   383.4575a   392.9682a   383.4575a
  cgtot       1.0085f     1.0085f   242.7896a   281.6759a   281.6760a
  cstot       1.4785f     1.4785f   392.9690a   528.8358a   528.8359a
  cbtot       1.4589f     1.4589f   630.9131a   815.1757a   805.6651a
  cgs       508.9779a   508.9779a    97.0774a    97.0785a    97.0786a
  cgd       492.5884a   492.5883a    97.0750a    97.0750a    97.0750a



 subckt    xcla_8.xu0  xcla_8.xu0  xcla_8.xu0  xcla_8.xu0  xcla_8.xu0
 element  11:mn2r     12:mn1      12:mp1      12:mn2      12:mp2     
 model     0:n_18.1    0:n_18.1    0:p_18.1    0:n_18.1    0:p_18.1  
 region    Linear      Linear      Cutoff      Cutoff      Cutoff    
  id         68.9865p   301.6707p   2.462e-23   -23.5757p    -5.3585p
  ibs      -5.190e-26  -1.458e-25   114.4440a  -188.1612a   2.104e-27
  ibd      -1.360e-23  -3.610e-23   114.4440a  -3.626e-23   114.4440a
  vgs         1.8000      1.8000     23.8373n    -1.8000     -1.3057u
  vds       150.9687n   346.7274n   346.7274n    -1.8000     -1.8000 
  vbs         0.          0.          1.8000     -1.8000      0.     
  vth       460.7312m   489.3693m  -904.5905m   422.3586m  -508.7038m
  vdsat     612.7780m   544.8354m   -62.1531m    56.5758m   -56.3794m
  vod         1.3393      1.3106    904.5902m  -422.3589m   508.7025m
  beta      353.0613u   688.6177u   184.0881u   915.4225u   248.0842u
  gam eff   507.4459m   507.4459m   547.4355m   507.4459m   557.0847m
  gm         24.5619p   129.9213p   7.483e-22   768.2297p   138.7940p
  gds       460.4599u   877.1059u    71.0086a    20.2857p     1.9477p
  gmb         9.8194p    39.3260p   1.672e-22    99.9698p    49.1522p
  cdtot     853.6287a     1.4835f   561.9439a   840.4154a   561.9439a
  cgtot     539.7876a   971.5999a   440.3724a   509.6089a   524.0536a
  cstot     841.1323a     1.4214f   561.9439a   613.0225a   789.1362a
  cbtot     940.2343a     1.4697f   918.5964a     1.2641f     1.2295f
  cgs       252.5684a   454.7962a   161.4150a   174.7350a   161.4215a
  cgd       255.1288a   459.9706a   161.4188a   174.7407a   161.4150a



 subckt    xcla_8.xu1  xcla_8.xu1  xcla_8.xu1  xcla_8.xu1  xcla_8.xu1
 element  13:mp1l     13:mp2l     13:mp1r     13:mp2r     13:mn1l    
 model     0:p_18.1    0:p_18.1    0:p_18.1    0:p_18.1    0:n_18.1  
 region    Linear      Cutoff      Cutoff      Cutoff      Cutoff    
  id         -7.1583p    -5.3583p    -4.6035p    -8.3915p    12.1632a
  ibs       2.104e-27   2.268e-24   1.763e-27    88.8182a  -3.856e-24
  ibd       2.264e-24   114.4440a    88.8182a   114.4440a  -7.739e-24
  vgs        -1.8000     35.6411n  -585.3520n  -403.0475m   -42.6395n
  vds       -35.6411n    -1.8000     -1.3970   -403.0474m    42.9396n
  vbs         0.         35.6411n     0.          1.3970    -42.6395n
  vth      -520.0605m  -508.7038m  -511.2467m  -826.6442m   460.7312m
  vdsat    -984.2467m   -56.3794m   -56.3862m   -60.5889m    62.0057m
