 ****** HSPICE -- Q-2020.03 linux64 (Mar  8 2020) ******                        
  Copyright (c) 1986 - 2023 by Synopsys, Inc. All Rights Reserved.              
  This software and the associated documentation are proprietary
  to Synopsys, Inc. This software may only be used in accordance
  with the terms and conditions of a written license agreement with
  Synopsys, Inc. All other use, reproduction, or distribution of
  this software is strictly prohibited.
  Input File: CLA_cmos_test.sp                                                  
  Command line options: /usr/cad/synopsys/hspice/cur/hspice/linux64/hspice -i CLA_cmos_test.sp -o CLA_cmos_test.lis
  Start time: Thu Mar 16 21:45:54 2023
 lic:  
 lic: FLEXlm: SDK_12.6 
 lic: USER:   109303021            HOSTNAME: ares-athena 
 lic: HOSTID: "e61f13c2e205"       PID:      13346 
 lic: Using FLEXlm license file: 
 lic: 26585@lshc 
 lic: Checkout 1 hspice 
 lic: License/Maintenance for hspice will expire on 14-may-2025/2022.06 
 lic: 283(in_use)/600(total) FLOATING license(s) on SERVER 26585@lshc 
 lic:   
1****** HSPICE -- Q-2020.03 linux64 (Mar  8 2020) ******                        
 ******  
 .title carry_lookahead addder implement by cmos logic

 ****** circuit name directory
 circuit number to circuit name directory
   number circuitname                     definition         multiplier
        0 main circuit
        1 xcla_8.                         cla_8              1.00 
        2 xcla_8.xu0.                     unit               1.00 
        3 xcla_8.xu1.                     unit               1.00 
        4 xcla_8.xu2.                     unit               1.00 
        5 xcla_8.xu3.                     unit               1.00 
        6 xcla_8.xu4.                     unit               1.00 
        7 xcla_8.xu5.                     unit               1.00 
        8 xcla_8.xu6.                     unit               1.00 
        9 xcla_8.xu7.                     unit               1.00 
       10 xcla_8.xu0.xxnor_upper.         xnor               1.00 
       11 xcla_8.xu0.xxnor_lower.         xnor               1.00 
       12 xcla_8.xu0.xmux.                mux                1.00 
       13 xcla_8.xu1.xxnor_upper.         xnor               1.00 
       14 xcla_8.xu1.xxnor_lower.         xnor               1.00 
       15 xcla_8.xu1.xmux.                mux                1.00 
       16 xcla_8.xu2.xxnor_upper.         xnor               1.00 
       17 xcla_8.xu2.xxnor_lower.         xnor               1.00 
       18 xcla_8.xu2.xmux.                mux                1.00 
       19 xcla_8.xu3.xxnor_upper.         xnor               1.00 
       20 xcla_8.xu3.xxnor_lower.         xnor               1.00 
       21 xcla_8.xu3.xmux.                mux                1.00 
       22 xcla_8.xu4.xxnor_upper.         xnor               1.00 
       23 xcla_8.xu4.xxnor_lower.         xnor               1.00 
       24 xcla_8.xu4.xmux.                mux                1.00 
       25 xcla_8.xu5.xxnor_upper.         xnor               1.00 
       26 xcla_8.xu5.xxnor_lower.         xnor               1.00 
       27 xcla_8.xu5.xmux.                mux                1.00 
       28 xcla_8.xu6.xxnor_upper.         xnor               1.00 
       29 xcla_8.xu6.xxnor_lower.         xnor               1.00 
       30 xcla_8.xu6.xmux.                mux                1.00 
       31 xcla_8.xu7.xxnor_upper.         xnor               1.00 
       32 xcla_8.xu7.xxnor_lower.         xnor               1.00 
       33 xcla_8.xu7.xmux.                mux                1.00 
       34 xcla_8.xu0.xxnor_upper.xinv1.   inv                1.00 
       35 xcla_8.xu0.xxnor_upper.xinv2.   inv                1.00 
       36 xcla_8.xu0.xxnor_lower.xinv1.   inv                1.00 
       37 xcla_8.xu0.xxnor_lower.xinv2.   inv                1.00 
       38 xcla_8.xu0.xmux.xinv.           inv                1.00 
       39 xcla_8.xu1.xxnor_upper.xinv1.   inv                1.00 
       40 xcla_8.xu1.xxnor_upper.xinv2.   inv                1.00 
       41 xcla_8.xu1.xxnor_lower.xinv1.   inv                1.00 
       42 xcla_8.xu1.xxnor_lower.xinv2.   inv                1.00 
       43 xcla_8.xu1.xmux.xinv.           inv                1.00 
       44 xcla_8.xu2.xxnor_upper.xinv1.   inv                1.00 
       45 xcla_8.xu2.xxnor_upper.xinv2.   inv                1.00 
       46 xcla_8.xu2.xxnor_lower.xinv1.   inv                1.00 
       47 xcla_8.xu2.xxnor_lower.xinv2.   inv                1.00 
       48 xcla_8.xu2.xmux.xinv.           inv                1.00 
       49 xcla_8.xu3.xxnor_upper.xinv1.   inv                1.00 
       50 xcla_8.xu3.xxnor_upper.xinv2.   inv                1.00 
       51 xcla_8.xu3.xxnor_lower.xinv1.   inv                1.00 
       52 xcla_8.xu3.xxnor_lower.xinv2.   inv                1.00 
       53 xcla_8.xu3.xmux.xinv.           inv                1.00 
       54 xcla_8.xu4.xxnor_upper.xinv1.   inv                1.00 
       55 xcla_8.xu4.xxnor_upper.xinv2.   inv                1.00 
       56 xcla_8.xu4.xxnor_lower.xinv1.   inv                1.00 
       57 xcla_8.xu4.xxnor_lower.xinv2.   inv                1.00 
       58 xcla_8.xu4.xmux.xinv.           inv                1.00 
       59 xcla_8.xu5.xxnor_upper.xinv1.   inv                1.00 
       60 xcla_8.xu5.xxnor_upper.xinv2.   inv                1.00 
       61 xcla_8.xu5.xxnor_lower.xinv1.   inv                1.00 
       62 xcla_8.xu5.xxnor_lower.xinv2.   inv                1.00 
       63 xcla_8.xu5.xmux.xinv.           inv                1.00 
       64 xcla_8.xu6.xxnor_upper.xinv1.   inv                1.00 
       65 xcla_8.xu6.xxnor_upper.xinv2.   inv                1.00 
       66 xcla_8.xu6.xxnor_lower.xinv1.   inv                1.00 
       67 xcla_8.xu6.xxnor_lower.xinv2.   inv                1.00 
       68 xcla_8.xu6.xmux.xinv.           inv                1.00 
       69 xcla_8.xu7.xxnor_upper.xinv1.   inv                1.00 
       70 xcla_8.xu7.xxnor_upper.xinv2.   inv                1.00 
       71 xcla_8.xu7.xxnor_lower.xinv1.   inv                1.00 
       72 xcla_8.xu7.xxnor_lower.xinv2.   inv                1.00 
       73 xcla_8.xu7.xmux.xinv.           inv                1.00 
  **info** (CLA_cmos_test.sp:69) DC voltage reset to initial transient source value in source 0:vin1. new dc=0.0000D+00
  **warning** (v_$vin2:0) pulse rise time is  < or = zero, reset to tstep
  **warning** (v_$vin2:0) pulse fall time is  < or = zero, reset to tstep
 

  
      
  **warning** (v_$vin2:0) pulse rise time is  < or = zero, reset to tstep
  **warning** (v_$vin2:0) pulse fall time is  < or = zero, reset to tstep
 **info** set option symb=1 internally to help for convergence.
 *****************************************************************
 ******  option summary
 ******
 runlvl  = 3         bypass  = 2.0000    
  Opening plot unit= 15
 file=CLA_cmos_test.pa0

  **warning** (v_$vin2:0) pulse rise time is  < or = zero, reset to tstep
  **warning** (v_$vin2:0) pulse fall time is  < or = zero, reset to tstep
 **info** dc convergence successful at Newton-Raphson method 
 ******  
 .title carry_lookahead addder implement by cmos logic

 ****** operating point information tnom=  25.000 temp=  25.000 ******
 ****** operating point status is all       simulation time is     0.     
     node    =voltage       node    =voltage       node    =voltage

 + 0:c0      =   1.8000   0:c1      = 282.4269n  0:c2      = 529.3178n
 + 0:c3      = 740.6732n  0:c4      = 916.4932n  0:c5      =   1.0568u
 + 0:c6      =   1.1615u  0:c7      =   1.2307u  0:c8      =   1.2644u
 + 0:s0      =   1.8000   0:s1      =   1.8000   0:s2      =   1.8000 
 + 0:s3      =   1.8000   0:s4      =   1.8000   0:s5      =   1.8000 
 + 0:s6      =   1.8000   0:s7      =   1.8000   0:vdd     =   1.8000 
 + 0:vss     =   0.       0:x0      =   0.       0:x1      =   0.     
 + 0:x2      =   0.       0:x3      =   0.       0:x4      =   0.     
 + 0:x5      =   0.       0:x6      =   0.       0:x7      =   0.     
 + 0:y0      =   0.       0:y1      =   1.8000   0:y2      =   1.8000 
 + 0:y3      =   1.8000   0:y4      =   1.8000   0:y5      =   1.8000 
 + 0:y6      =   1.8000   0:y7      =   1.8000   2:xnor_out=   1.8000 
 + 3:xnor_out=  40.4004n  4:xnor_out=  40.4003n  5:xnor_out=  40.4003n
 + 6:xnor_out=  40.4003n  7:xnor_out=  40.4003n  8:xnor_out=  40.4003n
 + 9:xnor_out=  40.4003n 10:in1_i   =   1.8000  10:in2_i   =   1.8000 
 +10:n1l_s   =  22.5636n 10:n1r_s   =   1.5721  10:p1l_s   =   1.8000 
 +10:p1r_s   =   1.8000  11:in1_i   =   9.2607n 11:in2_i   =   9.2606n
 +11:n1l_s   =   1.5721  11:n1r_s   =  22.5637n 11:p1l_s   =   1.8000 
 +11:p1r_s   =   1.8000  12:sel_i   =   9.2607n 13:in1_i   =   1.8000 
 +13:in2_i   =   9.2606n 13:n1l_s   =  20.0278n 13:n1r_s   =  20.2002n
 +13:p1l_s   =   1.8000  13:p1r_s   = 404.3200m 14:in1_i   =   1.8000 
 +14:in2_i   =   1.8000  14:n1l_s   =  22.5637n 14:n1r_s   =   1.5721 
 +14:p1l_s   =   1.8000  14:p1r_s   =   1.8000  15:sel_i   =   1.8000 
 +16:in1_i   =   1.8000  16:in2_i   =   9.2606n 16:n1l_s   =  20.0278n
 +16:n1r_s   =  20.2002n 16:p1l_s   =   1.8000  16:p1r_s   = 404.3200m
 +17:in1_i   =   1.8000  17:in2_i   =   1.8000  17:n1l_s   =  22.5637n
 +17:n1r_s   =   1.5721  17:p1l_s   =   1.8000  17:p1r_s   =   1.8000 
 +18:sel_i   =   1.8000  19:in1_i   =   1.8000  19:in2_i   =   9.2606n
 +19:n1l_s   =  20.0278n 19:n1r_s   =  20.2002n 19:p1l_s   =   1.8000 
 +19:p1r_s   = 404.3199m 20:in1_i   =   1.8000  20:in2_i   =   1.8000 
 +20:n1l_s   =  22.5637n 20:n1r_s   =   1.5721  20:p1l_s   =   1.8000 
 +20:p1r_s   =   1.8000  21:sel_i   =   1.8000  22:in1_i   =   1.8000 
 +22:in2_i   =   9.2606n 22:n1l_s   =  20.0278n 22:n1r_s   =  20.2002n
 +22:p1l_s   =   1.8000  22:p1r_s   = 404.3199m 23:in1_i   =   1.8000 
 +23:in2_i   =   1.8000  23:n1l_s   =  22.5637n 23:n1r_s   =   1.5721 
 +23:p1l_s   =   1.8000  23:p1r_s   =   1.8000  24:sel_i   =   1.8000 
 +25:in1_i   =   1.8000  25:in2_i   =   9.2606n 25:n1l_s   =  20.0278n
 +25:n1r_s   =  20.2002n 25:p1l_s   =   1.8000  25:p1r_s   = 404.3199m
 +26:in1_i   =   1.8000  26:in2_i   =   1.8000  26:n1l_s   =  22.5637n
 +26:n1r_s   =   1.5721  26:p1l_s   =   1.8000  26:p1r_s   =   1.8000 
 +27:sel_i   =   1.8000  28:in1_i   =   1.8000  28:in2_i   =   9.2606n
 +28:n1l_s   =  20.0278n 28:n1r_s   =  20.2002n 28:p1l_s   =   1.8000 
 +28:p1r_s   = 404.3199m 29:in1_i   =   1.8000  29:in2_i   =   1.8000 
 +29:n1l_s   =  22.5637n 29:n1r_s   =   1.5721  29:p1l_s   =   1.8000 
 +29:p1r_s   =   1.8000  30:sel_i   =   1.8000  31:in1_i   =   1.8000 
 +31:in2_i   =   9.2606n 31:n1l_s   =  20.0278n 31:n1r_s   =  20.2002n
 +31:p1l_s   =   1.8000  31:p1r_s   = 404.3199m 32:in1_i   =   1.8000 
 +32:in2_i   =   1.8000  32:n1l_s   =  22.5637n 32:n1r_s   =   1.5721 
 +32:p1l_s   =   1.8000  32:p1r_s   =   1.8000  33:sel_i   =   1.8000 


 **** voltage sources

 subckt                                                              
 element   0:vdd       0:vin1      0:vin10     0:vin11     0:vin12   
  volts       1.8000      0.          1.8000      0.          1.8000 
  current    -1.4019n     0.        -30.8681p     0.        -30.8680p
  power       2.5234n     0.         55.5627p     0.         55.5624p

 subckt                                                              
 element   0:vin13     0:vin14     0:vin15     0:vin16     0:vin17   
  volts       0.          1.8000      0.          1.8000      1.8000 
  current     0.        -30.8679p     0.        -30.8679p   -30.8686p
  power       0.         55.5622p     0.         55.5622p    55.5636p

 subckt                                                              
 element   0:vin2      0:vin3      0:vin4      0:vin5      0:vin6    
  volts       0.          0.          1.8000      0.          1.8000 
  current   275.7471p     0.        -30.8684p     0.        -30.8683p
  power       0.          0.         55.5632p     0.         55.5630p

 subckt                                                  
 element   0:vin7      0:vin8      0:vin9      0:vss     
  volts       0.          1.8000      0.          0.     
  current     0.        -30.8681p     0.          1.4019n
  power       0.         55.5626p     0.          0.     

     total voltage source power dissipation=    2.9679n       watts




 **** mosfets


 subckt    xcla_8.xu0  xcla_8.xu0  xcla_8.xu0  xcla_8.xu0  xcla_8.xu0
 element  10:mp1l     10:mp2l     10:mp1r     10:mp2r     10:mn1l    
 model     0:p_18.1    0:p_18.1    0:p_18.1    0:p_18.1    0:n_18.1  
 region    Linear      Linear      Cutoff      Cutoff      Cutoff    
  id        -46.7884p   -46.7884p    -3.5379a   -25.6682a    20.0862p
  ibs       1.280e-26   1.399e-23     0.        3.387e-24  -2.448e-24
  ibd       1.397e-23   2.795e-23   3.387e-24   2.796e-23  -194.5080a
  vgs        -1.8000     -1.8000   -107.6031n   -56.1090n   -22.5636n
  vds      -212.5509n  -212.5509n   -51.4942n  -373.6076n     1.8000 
  vbs         0.        212.5509n     0.         51.4942n   -22.5636n
  vth      -522.9129m  -522.9130m  -522.9129m  -522.9129m   428.5764m
  vdsat    -989.6420m  -989.6418m   -56.5018m   -56.5018m    56.0137m
  vod        -1.2771     -1.2771    522.9128m   522.9129m  -428.5764m
  beta      228.7604u   228.7604u   273.2624u   273.2624u     1.0154m
  gam eff   557.0847m   557.0847m   557.0847m   557.0847m   507.4459m
  gm         24.8641p    24.8641p    90.8440a   659.1012a   655.9135p
  gds       220.5317u   220.5317u    68.7039p    68.7033p    16.9764p
  gmb        12.7700p    12.7700p    33.0846a   240.0390a    85.8378p
  cdtot       1.6766f     1.6766f   856.7116a   856.7114a   670.4137a
  cgtot       1.1205f     1.1205f   582.5994a   582.5994a   566.8137a
  cstot       1.6229f     1.6229f   856.7113a   856.7113a   918.3104a
  cbtot       1.5809f     1.5809f     1.5786f     1.5786f     1.3789f
  cgs       566.0882a   566.0882a   179.3566a   179.3566a   194.1562a
  cgd       547.2853a   547.2853a   179.3507a   179.3507a   194.1500a



 subckt    xcla_8.xu0  xcla_8.xu0  xcla_8.xu0  xcla_8.xu0  xcla_8.xu0
 element  10:mn2l     10:mn1r     10:mn2r     11:mp1l     11:mp2l    
 model     0:n_18.1    0:n_18.1    0:n_18.1    0:p_18.1    0:p_18.1  
 region    Linear      Cutoff      Cutoff      Cutoff      Cutoff    
  id         21.8862p    21.0739p    16.5852p   -18.2440a   -10.9621a
  ibs      -9.838e-27  -169.8784a  -8.162e-27     0.        1.746e-23
  ibd      -2.428e-24  -194.5080a  -169.8784a   1.746e-23   2.796e-23
  vgs         1.8000    227.9253m     0.       -425.1018n   265.5435n
  vds        22.5636n   227.9249m     1.5721   -265.5435n  -159.5582n
  vbs         0.         -1.5721      0.          0.        265.5435n
  vth       494.9894m   646.0266m   436.9859m  -522.9129m  -522.9130m
  vdsat     537.0600m    60.4693m    56.0150m   -56.5018m   -56.5018m
  vod         1.3050   -418.1013m  -436.9859m   522.9125m   522.9133m
  beta      771.2118u   999.4676u     1.0151m   273.2624u   273.2624u
  gam eff   507.4459m   540.5080m   507.4459m   557.0847m   557.0847m
  gm          9.6511p   703.9219p   536.9254p   468.4647a   281.4829a
  gds       977.8671u    21.9885p    13.8614p    68.7042p    68.7029p
  gmb         2.8413p    88.9055p    68.8371p   170.6108a   102.5137a
  cdtot       1.6402f   670.4137a   686.4051a   856.7115a   856.7114a
  cgtot       1.0796f   486.1694a   566.8137a   582.5993a   582.5994a
  cstot       1.5665f   686.4056a   918.3104a   856.7113a   856.7112a
  cbtot       1.6021f     1.0664f     1.3949f     1.5786f     1.5786f
  cgs       505.7458a   194.1531a   194.1562a   179.3566a   179.3566a
  cgd       511.1567a   194.1500a   194.1500a   179.3507a   179.3507a



 subckt    xcla_8.xu0  xcla_8.xu0  xcla_8.xu0  xcla_8.xu0  xcla_8.xu0
 element  11:mp1r     11:mp2r     11:mn1l     11:mn2l     11:mn1r    
 model     0:p_18.1    0:p_18.1    0:n_18.1    0:n_18.1    0:n_18.1  
 region    Linear      Linear      Cutoff      Cutoff      Cutoff    
  id        -46.7883p   -46.7884p    21.0739p    16.5852p    20.0862p
  ibs       1.280e-26   1.399e-23  -169.8784a  -8.162e-27  -2.448e-24
  ibd       1.397e-23   2.795e-23  -194.5080a  -169.8784a  -194.5080a
  vgs        -1.8000     -1.8000    227.9252m     9.2606n   -13.3030n
  vds      -212.5508n  -212.5510n   227.9252m     1.5721      1.8000 
  vbs         0.        212.5508n    -1.5721      0.        -22.5637n
  vth      -522.9129m  -522.9130m   646.0265m   436.9859m   428.5764m
  vdsat    -989.6420m  -989.6418m    60.4693m    56.0150m    56.0137m
  vod        -1.2771     -1.2771   -418.1013m  -436.9859m  -428.5764m
  beta      228.7604u   228.7604u   999.4676u     1.0151m     1.0154m
  gam eff   557.0847m   557.0847m   540.5080m   507.4459m   507.4459m
  gm         24.8641p    24.8642p   703.9216p   536.9255p   655.9137p
  gds       220.5317u   220.5317u    21.9885p    13.8614p    16.9764p
  gmb        12.7700p    12.7700p    88.9055p    68.8371p    85.8378p
  cdtot       1.6766f     1.6766f   670.4137a   686.4052a   670.4137a
  cgtot       1.1205f     1.1205f   486.1694a   566.8137a   566.8137a
  cstot       1.6229f     1.6229f   686.4056a   918.3104a   918.3104a
  cbtot       1.5809f     1.5809f     1.0664f     1.3949f     1.3789f
  cgs       566.0882a   566.0882a   194.1531a   194.1562a   194.1562a
  cgd       547.2853a   547.2853a   194.1500a   194.1500a   194.1500a



 subckt    xcla_8.xu0  xcla_8.xu0  xcla_8.xu0  xcla_8.xu0  xcla_8.xu0
 element  11:mn2r     12:mn1      12:mp1      12:mn2      12:mp2     
 model     0:n_18.1    0:n_18.1    0:p_18.1    0:n_18.1    0:p_18.1  
 region    Linear      Linear      Cutoff      Cutoff      Cutoff    
  id         21.8862p   273.9470p   1.887e-23   -20.0860p    -5.3825p
  ibs      -9.838e-27  -1.231e-25   118.3824a  -194.5080a   1.965e-27
  ibd      -2.428e-24  -3.040e-23   118.3824a  -3.053e-23   118.3824a
  vgs         1.8000      1.8000      9.2607n    -1.8000   -425.1018n
  vds        22.5637n   282.4269n   282.4269n    -1.8000     -1.8000 
  vbs         0.          0.          1.8000     -1.8000      0.     
  vth       494.9894m   494.9894m  -909.0145m   428.5764m  -511.4959m
  vdsat     537.0600m   537.0599m   -62.1604m    56.0137m   -56.4732m
  vod         1.3050      1.3050    909.0142m  -428.5767m   511.4955m
  beta      771.2118u   771.2119u   204.6762u     1.0154m   276.6692u
  gam eff   507.4459m   507.4459m   547.4355m   507.4459m   557.0847m
  gm          9.6511p   120.8023p   5.734e-22   655.9075p   139.4285p
  gds       977.8672u   977.8663u    66.8040a    16.9762p     1.9517p
  gmb         2.8413p    35.5646p   1.289e-22    85.8370p    49.5991p
  cdtot       1.6402f     1.6402f   611.2303a   918.3103a   611.2303a
  cgtot       1.0796f     1.0796f   489.3666a   566.8137a   582.5992a
  cstot       1.5665f     1.5665f   611.2303a   670.4137a   856.7112a
  cbtot       1.6021f     1.6021f   994.4229a     1.3789f     1.3331f
  cgs       505.7458a   505.7458a   179.3500a   194.1500a   179.3571a
  cgd       511.1567a   511.1567a   179.3542a   194.1562a   179.3500a



 subckt    xcla_8.xu1  xcla_8.xu1  xcla_8.xu1  xcla_8.xu1  xcla_8.xu1
 element  13:mp1l     13:mp2l     13:mp1r     13:mp2r     13:mn1l    
 model     0:p_18.1    0:p_18.1    0:p_18.1    0:p_18.1    0:n_18.1  
 region    Linear      Cutoff      Cutoff      Cutoff      Cutoff    
  id         -7.1825p    -5.3825p    -4.6238p    -8.4067p     2.3470a
  ibs       1.965e-27   2.148e-24   1.647e-27    91.7911a  -2.164e-24
  ibd       2.144e-24   118.3824a    91.7911a   118.3824a  -4.366e-24
  vgs        -1.8000     32.6286n  -107.6031n  -404.3200m   -20.0278n
  vds       -32.6286n    -1.8000     -1.3957   -404.3199m    20.3726n
  vbs         0.         32.6286n     0.          1.3957    -20.0278n
  vth      -522.9129m  -511.4959m  -514.0604m  -830.3776m   494.9894m
  vdsat    -989.6420m   -56.4732m   -56.4797m   -60.5989m    56.0358m
