 ****** HSPICE -- Q-2020.03 linux64 (Mar  8 2020) ******                        
  Copyright (c) 1986 - 2023 by Synopsys, Inc. All Rights Reserved.              
  This software and the associated documentation are proprietary
  to Synopsys, Inc. This software may only be used in accordance
  with the terms and conditions of a written license agreement with
  Synopsys, Inc. All other use, reproduction, or distribution of
  this software is strictly prohibited.
  Input File: CLA_psuedo.sp                                                     
  Command line options: /usr/cad/synopsys/hspice/cur/hspice/linux64/hspice -i CLA_psuedo.sp -o CLA_psuedo.lis
  Start time: Fri Mar 17 01:28:33 2023
 lic:  
 lic: FLEXlm: SDK_12.6 
 lic: USER:   109303021            HOSTNAME: ares-athena 
 lic: HOSTID: "e61f13c2e205"       PID:      26982 
 lic: Using FLEXlm license file: 
 lic: 26585@lshc 
 lic: Checkout 1 hspice 
 lic: License/Maintenance for hspice will expire on 14-may-2025/2022.06 
 lic: 298(in_use)/600(total) FLOATING license(s) on SERVER 26585@lshc 
 lic:   
1****** HSPICE -- Q-2020.03 linux64 (Mar  8 2020) ******                        
 ******  
 .title carry_lookahead addder implement by psuedo nmos logic

 ****** circuit name directory
 circuit number to circuit name directory
   number circuitname                     definition         multiplier
        0 main circuit
        1 xcla_8.                         cla_8              1.00 
        2 xcla_8.xu0.                     unit               1.00 
        3 xcla_8.xu1.                     unit               1.00 
        4 xcla_8.xu2.                     unit               1.00 
        5 xcla_8.xu3.                     unit               1.00 
        6 xcla_8.xu4.                     unit               1.00 
        7 xcla_8.xu5.                     unit               1.00 
        8 xcla_8.xu6.                     unit               1.00 
        9 xcla_8.xu7.                     unit               1.00 
       10 xcla_8.xu0.xxnor_upper.         xnor               1.00 
       11 xcla_8.xu0.xxnor_lower.         xnor               1.00 
       12 xcla_8.xu0.xmux.                mux                1.00 
       13 xcla_8.xu1.xxnor_upper.         xnor               1.00 
       14 xcla_8.xu1.xxnor_lower.         xnor               1.00 
       15 xcla_8.xu1.xmux.                mux                1.00 
       16 xcla_8.xu2.xxnor_upper.         xnor               1.00 
       17 xcla_8.xu2.xxnor_lower.         xnor               1.00 
       18 xcla_8.xu2.xmux.                mux                1.00 
       19 xcla_8.xu3.xxnor_upper.         xnor               1.00 
       20 xcla_8.xu3.xxnor_lower.         xnor               1.00 
       21 xcla_8.xu3.xmux.                mux                1.00 
       22 xcla_8.xu4.xxnor_upper.         xnor               1.00 
       23 xcla_8.xu4.xxnor_lower.         xnor               1.00 
       24 xcla_8.xu4.xmux.                mux                1.00 
       25 xcla_8.xu5.xxnor_upper.         xnor               1.00 
       26 xcla_8.xu5.xxnor_lower.         xnor               1.00 
       27 xcla_8.xu5.xmux.                mux                1.00 
       28 xcla_8.xu6.xxnor_upper.         xnor               1.00 
       29 xcla_8.xu6.xxnor_lower.         xnor               1.00 
       30 xcla_8.xu6.xmux.                mux                1.00 
       31 xcla_8.xu7.xxnor_upper.         xnor               1.00 
       32 xcla_8.xu7.xxnor_lower.         xnor               1.00 
       33 xcla_8.xu7.xmux.                mux                1.00 
       34 xcla_8.xu0.xxnor_upper.xinv1.   inv                1.00 
       35 xcla_8.xu0.xxnor_upper.xinv2.   inv                1.00 
       36 xcla_8.xu0.xxnor_lower.xinv1.   inv                1.00 
       37 xcla_8.xu0.xxnor_lower.xinv2.   inv                1.00 
       38 xcla_8.xu0.xmux.xinv.           inv                1.00 
       39 xcla_8.xu1.xxnor_upper.xinv1.   inv                1.00 
       40 xcla_8.xu1.xxnor_upper.xinv2.   inv                1.00 
       41 xcla_8.xu1.xxnor_lower.xinv1.   inv                1.00 
       42 xcla_8.xu1.xxnor_lower.xinv2.   inv                1.00 
       43 xcla_8.xu1.xmux.xinv.           inv                1.00 
       44 xcla_8.xu2.xxnor_upper.xinv1.   inv                1.00 
       45 xcla_8.xu2.xxnor_upper.xinv2.   inv                1.00 
       46 xcla_8.xu2.xxnor_lower.xinv1.   inv                1.00 
       47 xcla_8.xu2.xxnor_lower.xinv2.   inv                1.00 
       48 xcla_8.xu2.xmux.xinv.           inv                1.00 
       49 xcla_8.xu3.xxnor_upper.xinv1.   inv                1.00 
       50 xcla_8.xu3.xxnor_upper.xinv2.   inv                1.00 
       51 xcla_8.xu3.xxnor_lower.xinv1.   inv                1.00 
       52 xcla_8.xu3.xxnor_lower.xinv2.   inv                1.00 
       53 xcla_8.xu3.xmux.xinv.           inv                1.00 
       54 xcla_8.xu4.xxnor_upper.xinv1.   inv                1.00 
       55 xcla_8.xu4.xxnor_upper.xinv2.   inv                1.00 
       56 xcla_8.xu4.xxnor_lower.xinv1.   inv                1.00 
       57 xcla_8.xu4.xxnor_lower.xinv2.   inv                1.00 
       58 xcla_8.xu4.xmux.xinv.           inv                1.00 
       59 xcla_8.xu5.xxnor_upper.xinv1.   inv                1.00 
       60 xcla_8.xu5.xxnor_upper.xinv2.   inv                1.00 
       61 xcla_8.xu5.xxnor_lower.xinv1.   inv                1.00 
       62 xcla_8.xu5.xxnor_lower.xinv2.   inv                1.00 
       63 xcla_8.xu5.xmux.xinv.           inv                1.00 
       64 xcla_8.xu6.xxnor_upper.xinv1.   inv                1.00 
       65 xcla_8.xu6.xxnor_upper.xinv2.   inv                1.00 
       66 xcla_8.xu6.xxnor_lower.xinv1.   inv                1.00 
       67 xcla_8.xu6.xxnor_lower.xinv2.   inv                1.00 
       68 xcla_8.xu6.xmux.xinv.           inv                1.00 
       69 xcla_8.xu7.xxnor_upper.xinv1.   inv                1.00 
       70 xcla_8.xu7.xxnor_upper.xinv2.   inv                1.00 
       71 xcla_8.xu7.xxnor_lower.xinv1.   inv                1.00 
       72 xcla_8.xu7.xxnor_lower.xinv2.   inv                1.00 
       73 xcla_8.xu7.xmux.xinv.           inv                1.00 
  **info** (CLA_psuedo.sp:89) DC voltage reset to initial transient source value in source 0:vin1. new dc=0.0000D+00
  **warning** (v_$vin2:0) pulse rise time is  < or = zero, reset to tstep
  **warning** (v_$vin2:0) pulse fall time is  < or = zero, reset to tstep
 

  
      
  **warning** (v_$vin2:0) pulse rise time is  < or = zero, reset to tstep
  **warning** (v_$vin2:0) pulse fall time is  < or = zero, reset to tstep
 **info** set option symb=1 internally to help for convergence.
 *****************************************************************
 ******  option summary
 ******
 runlvl  = 3         bypass  = 2.0000    
  Opening plot unit= 15
 file=CLA_psuedo.pa0

  **warning** (v_$vin2:0) pulse rise time is  < or = zero, reset to tstep
  **warning** (v_$vin2:0) pulse fall time is  < or = zero, reset to tstep
 **info** dc convergence successful at Newton-Raphson method 
 ******  
 .title carry_lookahead addder implement by psuedo nmos logic

 ****** operating point information tnom=  25.000 temp=  25.000 ******
 ****** operating point status is all       simulation time is     0.     
     node    =voltage       node    =voltage       node    =voltage

 + 0:c0      =   1.8000   0:c1      =   3.3892m  0:c2      =   6.7912m
 + 0:c3      =   9.6340m  0:c4      =  11.9538m  0:c5      =  13.7786m
 + 0:c6      =  15.1296m  0:c7      =  16.0219m  0:c8      =  16.4656m
 + 0:s0      =   1.8000   0:s1      =   1.7940   0:s2      =   1.7940 
 + 0:s3      =   1.7940   0:s4      =   1.7940   0:s5      =   1.7940 
 + 0:s6      =   1.7940   0:s7      =   1.7940   0:vdd     =   1.8000 
 + 0:vss     =   0.       0:x0      =   0.       0:x1      =   0.     
 + 0:x2      =   0.       0:x3      =   0.       0:x4      =   0.     
 + 0:x5      =   0.       0:x6      =   0.       0:x7      =   0.     
 + 0:y0      =   0.       0:y1      =   1.8000   0:y2      =   1.8000 
 + 0:y3      =   1.8000   0:y4      =   1.8000   0:y5      =   1.8000 
 + 0:y6      =   1.8000   0:y7      =   1.8000   2:xnor_out=   1.8000 
 + 3:xnor_out= 354.0831m  4:xnor_out= 354.0831m  5:xnor_out= 354.0831m
 + 6:xnor_out= 354.0831m  7:xnor_out= 354.0831m  8:xnor_out= 354.0831m
 + 9:xnor_out= 354.0831m 10:in1_i   =   1.8000  10:in2_i   =   1.8000 
 +10:n1_s    = 150.9686n 10:n2_s    =   1.5703  11:in1_i   =  19.6577n
 +11:in2_i   =  19.6573n 11:n1_s    =   1.5703  11:n2_s    = 150.9687n
 +12:sel_i   =  19.6577n 13:in1_i   =   1.8000  13:in2_i   =  19.6573n
 +13:n1_s    =  28.7272m 13:n2_s    = 165.1326m 14:in1_i   =   1.7957 
 +14:in2_i   =   1.8000  14:n1_s    =   1.5779m 14:n2_s    =   1.5639 
 +15:sel_i   =   1.7957  16:in1_i   =   1.8000  16:in2_i   =  19.6573n
 +16:n1_s    =  28.7272m 16:n2_s    = 165.1326m 17:in1_i   =   1.7957 
 +17:in2_i   =   1.8000  17:n1_s    =   1.5779m 17:n2_s    =   1.5614 
 +18:sel_i   =   1.7957  19:in1_i   =   1.8000  19:in2_i   =  19.6573n
 +19:n1_s    =  28.7272m 19:n2_s    = 165.1326m 20:in1_i   =   1.7957 
 +20:in2_i   =   1.8000  20:n1_s    =   1.5779m 20:n2_s    =   1.5592 
 +21:sel_i   =   1.7957  22:in1_i   =   1.8000  22:in2_i   =  19.6573n
 +22:n1_s    =  28.7272m 22:n2_s    = 165.1326m 23:in1_i   =   1.7957 
 +23:in2_i   =   1.8000  23:n1_s    =   1.5779m 23:n2_s    =   1.5574 
 +24:sel_i   =   1.7957  25:in1_i   =   1.8000  25:in2_i   =  19.6573n
 +25:n1_s    =  28.7272m 25:n2_s    = 165.1326m 26:in1_i   =   1.7957 
 +26:in2_i   =   1.8000  26:n1_s    =   1.5779m 26:n2_s    =   1.5560 
 +27:sel_i   =   1.7957  28:in1_i   =   1.8000  28:in2_i   =  19.6573n
 +28:n1_s    =  28.7272m 28:n2_s    = 165.1326m 29:in1_i   =   1.7957 
 +29:in2_i   =   1.8000  29:n1_s    =   1.5779m 29:n2_s    =   1.5550 
 +30:sel_i   =   1.7957  31:in1_i   =   1.8000  31:in2_i   =  19.6573n
 +31:n1_s    =  28.7272m 31:n2_s    = 165.1326m 32:in1_i   =   1.7957 
 +32:in2_i   =   1.8000  32:n1_s    =   1.5779m 32:n2_s    =   1.5543 
 +33:sel_i   =   1.7957 


 **** voltage sources

 subckt                                                              
 element   0:vdd       0:vin1      0:vin10     0:vin11     0:vin12   
  volts       1.8000      0.          1.8000      0.          1.8000 
  current  -451.0176u     0.       -408.1107n     0.       -394.5585n
  power     811.8317u     0.        734.5992n     0.        710.2053n

 subckt                                                              
 element   0:vin13     0:vin14     0:vin15     0:vin16     0:vin17   
  volts       0.          1.8000      0.          1.8000      1.8000 
  current     0.       -385.8332n     0.       -381.5611n   -31.4944p
  power       0.        694.4998n     0.        686.8100n    56.6899p

 subckt                                                              
 element   0:vin2      0:vin3      0:vin4      0:vin5      0:vin6    
  volts       0.          0.          1.8000      0.          1.8000 
  current     2.9348u     0.       -485.2141n     0.       -452.3738n
  power       0.          0.        873.3853n     0.        814.2729n

 subckt                                                  
 element   0:vin7      0:vin8      0:vin9      0:vss     
  volts       0.          1.8000      0.          0.     
  current     0.       -427.0889n     0.        451.0176u
  power       0.        768.7600n     0.          0.     

     total voltage source power dissipation=  817.1143u       watts




 **** mosfets


 subckt    xcla_8.xu0  xcla_8.xu0  xcla_8.xu0  xcla_8.xu0  xcla_8.xu0
 element  10:mp1      10:mn1l     10:mn2l     10:mn1r     10:mn2r    
 model     0:p_18.1    0:n_18.1    0:n_18.1    0:n_18.1    0:n_18.1  
 region    Linear      Subth       Linear      Subth       Subth     
  id       -131.1162p    67.1864p    68.9864p    58.2997p    53.8183p
  ibs       5.981e-26  -1.370e-23  -5.190e-26  -142.0010a  -4.167e-26
  ibd       5.939e-23  -162.7739a  -1.360e-23  -162.7739a  -142.0010a
  vgs        -1.8000   -150.9686n     1.8000    229.7129m     0.     
  vds        -1.0842u     1.8000    150.9686n   229.7121m     1.5703 
  vbs         0.       -150.9686n     0.         -1.5703      0.     
  vth      -494.2176m   388.4850m   460.7312m   610.6343m   397.7049m
  vdsat    -855.8517m    61.9442m   612.7779m    64.5990m    61.9492m
  vod        -1.3058   -388.4852m     1.3393   -380.9214m  -397.7049m
  beta      120.1882u   513.7626u   353.0614u   490.0182u   513.2437u
  gam eff   557.0847m   507.4459m   507.4459m   540.4779m   507.4459m
  gm         75.2817p     2.1464n    24.5619p     1.9144n     1.7050n
  gds       121.1744u    65.2602p   460.4599u    76.0262p    51.7050p
  gmb        34.9817p   280.1414p     9.8194p   232.8341p   219.0936p
  cdtot     930.1569a   383.4575a   853.6287a   383.4575a   392.9681a
  cgtot     560.2813a   281.6760a   539.7876a   242.7896a   281.6759a
  cstot     900.4784a   528.8359a   841.1323a   392.9689a   528.8358a
  cbtot     970.5798a   805.6650a   940.2343a   630.9130a   815.1757a
  cgs       280.0091a    97.0786a   252.5684a    97.0774a    97.0785a
  cgd       273.8097a    97.0750a   255.1288a    97.0750a    97.0750a



 subckt    xcla_8.xu0  xcla_8.xu0  xcla_8.xu0  xcla_8.xu0  xcla_8.xu0
 element  11:mp1      11:mn1l     11:mn2l     11:mn1r     11:mn2r    
 model     0:p_18.1    0:n_18.1    0:n_18.1    0:n_18.1    0:n_18.1  
 region    Linear      Subth       Subth       Subth       Linear    
  id       -131.1162p    58.2997p    53.8183p    67.1865p    68.9865p
  ibs       5.981e-26  -142.0010a  -4.167e-26  -1.370e-23  -5.190e-26
  ibd       5.939e-23  -162.7739a  -142.0010a  -162.7739a  -1.360e-23
  vgs        -1.8000    229.7128m    19.6573n  -131.3110n     1.8000 
  vds        -1.0842u   229.7128m     1.5703      1.8000    150.9687n
  vbs         0.         -1.5703      0.       -150.9687n     0.     
  vth      -494.2176m   610.6342m   397.7050m   388.4850m   460.7312m
  vdsat    -855.8517m    64.5990m    61.9492m    61.9442m   612.7780m
  vod        -1.3058   -380.9214m  -397.7049m  -388.4852m     1.3393 
  beta      120.1882u   490.0182u   513.2437u   513.7626u   353.0613u
  gam eff   557.0847m   540.4779m   507.4459m   507.4459m   507.4459m
  gm         75.2817p     1.9144n     1.7050n     2.1464n    24.5619p
  gds       121.1744u    76.0260p    51.7050p    65.2602p   460.4599u
  gmb        34.9817p   232.8341p   219.0936p   280.1416p     9.8194p
  cdtot     930.1569a   383.4575a   392.9682a   383.4575a   853.6287a
  cgtot     560.2813a   242.7896a   281.6759a   281.6760a   539.7876a
  cstot     900.4784a   392.9690a   528.8358a   528.8359a   841.1323a
  cbtot     970.5798a   630.9131a   815.1757a   805.6650a   940.2343a
  cgs       280.0091a    97.0774a    97.0785a    97.0786a   252.5684a
  cgd       273.8097a    97.0750a    97.0750a    97.0750a   255.1288a



 subckt    xcla_8.xu0  xcla_8.xu0  xcla_8.xu0  xcla_8.xu0  xcla_8.xu1
 element  12:mn1      12:mp1      12:mn2      12:mp2      13:mp1     
 model     0:n_18.1    0:p_18.1    0:n_18.1    0:p_18.1    0:p_18.1  
 region    Linear      Cutoff      Cutoff      Cutoff      Saturation
  id          2.9348u   2.650e-19   -20.7491p    -5.3519p   -62.2195u
  ibs      -1.418e-21   114.4440a  -188.1612a   2.101e-27   2.838e-20
  ibd      -3.529e-19   114.2285a  -3.543e-19   114.2285a    79.2484a
  vgs         1.8000     19.6577n    -1.8000     -1.0842u    -1.8000 
  vds         3.3892m     3.3892m    -1.7966     -1.7966     -1.4459 
  vbs         0.          1.8000     -1.8000      0.          0.     
  vth       489.2459m  -903.9491m   422.9024m  -508.7252m  -485.6194m
  vdsat     544.8345m   -62.1397m    56.5699m   -56.3795m  -858.2866m
  vod         1.3108    900.5599m  -426.2916m   508.7241m    -1.3144 
  beta      688.6522u   184.1765u   915.4250u   248.0782u   120.8988u
  gam eff   507.4463m   547.4498m   507.5408m   557.0847m   557.0809m
  gm          1.2699u     8.0541a   676.3293p   138.6201p    69.8759u
  gds       868.7221u    75.8632a    17.7263p     1.9463p     5.7226u
  gmb       382.0468n     1.7981a    87.8747p    49.0933p    18.0547u
  cdtot       1.4816f   562.1363a   839.4387a   562.1363a   381.5190a
  cgtot     971.5827a   440.3724a   509.6088a   524.0536a   475.2590a
  cstot       1.4211f   561.9439a   613.0225a   789.1362a   842.2483a
  cbtot       1.4687f   918.7888a     1.2631f     1.2297f   818.1010a
  cgs       455.1744a   161.4150a   174.7350a   161.4215a   356.1127a
  cgd       459.5587a   161.4188a   174.7407a   161.4150a    89.1537a



 subckt    xcla_8.xu1  xcla_8.xu1  xcla_8.xu1  xcla_8.xu1  xcla_8.xu1
 element  13:mn1l     13:mn2l     13:mn1r     13:mn2r     14:mp1     
 model     0:n_18.1    0:n_18.1    0:n_18.1    0:n_18.1    0:p_18.1  
 region    Cutoff      Cutoff      Linear      Linear      Linear    
  id          6.0159p     6.2550p    62.2195u    62.2195u  -719.7107n
  ibs        -2.5978a  -4.728e-27   -14.9798a  -4.681e-20   3.283e-22
  ibd       -32.0197a    -2.5978a   -31.9729a   -14.8861a   3.274e-19
  vgs       -28.7272m    19.6573n     1.6349      1.8000     -1.8000 
  vds       325.3558m    28.7272m   188.9505m   165.1326m    -5.9777m
  vbs       -28.7272m     0.       -165.1326m     0.          0.     
  vth       451.3161m   459.5782m   473.5528m   454.2115m  -494.1832m
  vdsat      61.8236m    62.0043m   566.9371m   612.6100m  -855.8596m
  vod      -480.0433m  -459.5782m     1.1613      1.3458     -1.3058 
  beta      508.9445u   508.0218u   374.9968u   354.1797u   120.1911u
  gam eff   508.2448m   507.4459m   511.8907m   507.4604m   557.0846m
  gm        181.9059p   186.8421p    37.6323u    27.6334u   415.2802n
  gds         6.7536p   156.5528p   256.6103u   308.7394u   120.1085u
  gmb        20.3133p    20.3407p     8.3256u     8.2175u   192.0546n
  cdtot     477.7541a   523.6744a   774.3147a   805.1217a   927.8518a
  cgtot     281.6756a   281.6756a   537.7504a   538.6449a   560.2613a
  cstot     523.6745a   528.8353a   803.6437a   832.6633a   900.1595a
  cbtot     894.8011a   945.8819a   858.8609a   917.2903a   969.2737a
  cgs        97.0780a    97.0781a   268.1846a   261.8192a   280.4396a
  cgd        97.0750a    97.0750a   238.4457a   244.0419a   273.3437a



 subckt    xcla_8.xu1  xcla_8.xu1  xcla_8.xu1  xcla_8.xu1  xcla_8.xu1
 element  14:mn1l     14:mn2l     14:mn1r     14:mn2r     15:mn1     
 model     0:n_18.1    0:n_18.1    0:n_18.1    0:n_18.1    0:n_18.1  
 region    Subth       Linear      Subth       Subth       Subth     
  id        719.6411n   719.6429n    64.0133p    59.5513p  -485.2027n
  ibs      -1.432e-19  -5.414e-22  -141.4277a  -4.598e-26  -188.1610a
  ibd      -162.2329a  -1.421e-19  -162.2334a  -141.4277a  -7.101e-19
  vgs       352.5052m     1.8000    231.7782m     3.3892m    -1.4459 
  vds         1.7924      1.5779m   230.0758m     1.5639     -1.7932 
  vbs        -1.5779m     0.         -1.5639      0.         -1.8000 
  vth       388.9811m   460.6691m   610.0691m   397.9594m   423.4478m
  vdsat      87.2177m   612.7760m    64.5715m    61.9496m    68.1953m
  vod       -36.4760m     1.3393   -378.2908m  -394.5702m   -76.1560m
  beta      513.4130u   353.0722u   490.1014u   513.2284u   915.3891u
  gam eff   507.4903m   507.4461m   540.3711m   507.4459m   507.6360m
  gm         13.4886u   256.8761n     2.0985n     1.8849n    10.2712u
  gds       522.7147n   458.6765u    83.9073p    57.4313p   366.9808n
  gmb         1.7303u   102.3584n   254.2815p   242.0463p     1.2868u
  cdtot     383.6908a   853.1560a   383.6906a   393.2480a   874.9451a
  cgtot     311.1642a   539.7838a   242.8295a   281.4929a   508.9624a
  cstot     591.1513a   841.0525a   393.2489a   528.8358a   613.0226a
  cbtot     792.5627a   939.9840a   631.4658a   815.2724a     1.2355f
  cgs       147.8758a   252.6539a    97.0774a    97.0786a   173.8633a
